
T12B4 000:410 SEGGER J-Link V4.36 Log File (0001ms, 0408ms total)
T12B4 000:410 DLL Compiled: Oct 13 2011 19:43:41 (0001ms, 0408ms total)
T12B4 000:410 Logging started @ 2013-10-17 10:28 (0001ms, 0408ms total)
T12B4 000:411 JLINK_SetWarnOutHandler(...) (0000ms, 0409ms total)
T12B4 000:411 JLINK_OpenEx(...)
Firmware: J-Link ARM V8 compiled Sep 22 2011 16:23:23
Hardware: V8.00
S/N: 805306163
Feature(s): RDI,FlashDL,FlashBP,JFlash,GDBFull  returns O.K. (0127ms, 0409ms total)
T12B4 000:538 JLINK_SetErrorOutHandler(...) (0000ms, 0536ms total)
T12B4 000:539 JLINK_ExecCommand("Device = STM32L152RB", ...)
                JLINK_ExecCommand("map ram 0x20000000 - 0x20003FFF", ...)  returns 0x00 (0000ms, 0000ms total)
                JLINK_AddMirrorAreaEx(Addr = 0x00000000, Size = 0x00000000) (0000ms, 0000ms total)
              Device "STM32L152RB" selected (128 KB flash, 16 KB RAM).  returns 0x00 (0001ms, 0536ms total)
T12B4 000:543 JLINK_ExecCommand("ProjectFile = "E:\Workspace\xlink\trunk\firmware\xlink-kickstart\MDK\JLinkSettings.ini"", ...)  returns 0x00 (0002ms, 0537ms total)
T12B4 000:548 JLINK_ExecCommand("DisableConnectionTimeout", ...)  returns 0x00 (0000ms, 0539ms total)
T12B4 000:548 JLINK_TIF_Select(JLINKARM_TIF_SWD)  returns 0x00 (0000ms, 0539ms total)
T12B4 000:548 JLINK_SetSpeed(5000) (0001ms, 0539ms total)
T12B4 000:551 JLINK_GetHardwareVersion()  returns 0x13880 (0000ms, 0540ms total)
T12B4 000:551 JLINK_GetDLLVersion()  returns 43600 (0000ms, 0540ms total)
T12B4 000:551 JLINK_GetFirmwareString(...) (0000ms, 0540ms total)
T12B4 000:551 JLINK_GetDLLVersion()  returns 43600 (0000ms, 0540ms total)
T12B4 000:551 JLINK_GetCompileDateTime() (0000ms, 0540ms total)
T12B4 000:551 JLINK_GetFirmwareString(...) (0000ms, 0540ms total)
T12B4 000:551 JLINK_GetHardwareVersion()  returns 0x13880 (0000ms, 0540ms total)
T12B4 000:551 JLINK_GetId() >0x108 TIF>Found SWD-DP with ID 0x2BA01477 >0x33 TIF> >0x33 TIF> >0x35 TIF> >0x33 TIF> >0x35 TIF> >0x33 TIF> >0x33 TIF> >0x35 TIF> >0x33 TIF> >0x33 TIF> >0x35 TIF> >0x33 TIF> >0x33 TIF> >0x35 TIF> >0x33 TIF> >0x33 TIF> >0x35 TIF> >0x35 TIF> >0x35 TIF> >0x33 TIF> >0x33 TIF> >0x35 TIF> >0x33 TIF> >0x33 TIF> >0x33 TIF>TPIU fitted.ETM fitted. >0x35 TIF> >0x33 TIF> >0x33 TIF> >0x35 TIF> >0x33 TIF> >0x33 TIF>  FPUnit: 6 code (BP) slots and 2 literal slots >0x35 TIF> >0x33 TIF>
 >0x33 TIF> >0x35 TIF> >0x33 TIF> >0x33 TIF> >0x35 TIF> >0x33 TIF> >0x33 TIF>Found Cortex-M3 r2p0, Little endian. >0x33 TIF>  returns 0x2BA01477 (0046ms, 0540ms total)
T12B4 000:597 JLINK_GetDebugInfo(0x100) -- Value=0xE00FF003  returns 0x00 (0000ms, 0586ms total)
T12B4 000:597 JLINK_ReadMem (0xE00FFFF0, 0x0010 Bytes, ...) -- CPU is running -- CPU_ReadMem(16 bytes @ 0xE00FFFF0) -- Data:  0D 00 00 00 10 00 00 00 05 00 00 00 B1 00 00 00  returns 0x00 (0003ms, 0586ms total)
T12B4 000:600 JLINK_ReadMem (0xE00FFFD0, 0x0020 Bytes, ...) -- CPU is running -- CPU_ReadMem(32 bytes @ 0xE00FFFD0) -- Data:  00 00 00 00 00 00 00 00 00 00 00 00 00 00 00 00 ...  returns 0x00 (0001ms, 0589ms total)
T12B4 000:601 JLINK_ReadMem (0xE00FF000, 0x0018 Bytes, ...) -- CPU is running -- CPU_ReadMem(24 bytes @ 0xE00FF000) -- Data:  03 F0 F0 FF 03 20 F0 FF 03 30 F0 FF 03 10 F0 FF ...  returns 0x00 (0002ms, 0590ms total)
T12B4 000:603 JLINK_ReadMemU32(0xE000ED00, 0x0001 Items, ...) -- CPU is running -- CPU_ReadMem(4 bytes @ 0xE000ED00) -- Data:  30 C2 2F 41  returns 0x01 (0001ms, 0592ms total)
T12B4 000:604 JLINK_SetResetType(JLINKARM_RESET_TYPE_NORMAL)  returns JLINKARM_RESET_TYPE_NORMAL (0000ms, 0593ms total)
T12B4 000:604 JLINK_Reset() >0x108 TIF>Found SWD-DP with ID 0x2BA01477 >0x33 TIF> >0x33 TIF> >0x35 TIF> >0x33 TIF> >0x35 TIF> >0x33 TIF> >0x33 TIF> >0x35 TIF> >0x33 TIF> >0x33 TIF> >0x35 TIF> >0x33 TIF> >0x33 TIF> >0x35 TIF> >0x33 TIF> >0x33 TIF> >0x35 TIF> >0x35 TIF> >0x35 TIF> >0x33 TIF> >0x33 TIF> >0x35 TIF> >0x33 TIF> >0x33 TIF> >0x33 TIF>TPIU fitted.ETM fitted. >0x35 TIF> >0x33 TIF> >0x33 TIF> >0x35 TIF> >0x33 TIF> >0x33 TIF>  FPUnit: 6 code (BP) slots and 2 literal slots >0x35 TIF> >0x33 TIF>
 >0x33 TIF> >0x35 TIF> >0x33 TIF> >0x33 TIF> >0x35 TIF> >0x33 TIF> >0x33 TIF>Found Cortex-M3 r2p0, Little endian. (0100ms, 0593ms total)
T12B4 000:704 JLINK_ReadReg(R15)  returns 0x08000650 (0000ms, 0693ms total)
T12B4 000:704 JLINK_ReadReg(XPSR)  returns 0x01000000 (0000ms, 0693ms total)
T12B4 000:704 JLINK_Halt()  returns 0x00 (0001ms, 0693ms total)
T12B4 000:705 JLINK_IsHalted()  returns TRUE (0000ms, 0694ms total)
T12B4 000:705 JLINK_ReadMemU32(0xE000EDF0, 0x0001 Items, ...) -- CPU_ReadMem(4 bytes @ 0xE000EDF0) -- Data:  03 00 03 00  returns 0x01 (0001ms, 0694ms total)
T12B4 000:706 JLINK_WriteU32(0xE000EDF0, 0xA05F0003) -- CPU_WriteMem(4 bytes @ 0xE000EDF0)  returns 0x00 (0001ms, 0695ms total)
T12B4 000:707 JLINK_WriteU32(0xE000EDFC, 0x01000000) -- CPU_WriteMem(4 bytes @ 0xE000EDFC)  returns 0x00 (0002ms, 0696ms total)
T12B4 000:709 JLINK_GetHWStatus(...)  returns 0x00 (0001ms, 0698ms total)
T12B4 000:711 JLINK_GetNumBPUnits(Type = 0xFFFFFF00)  returns 0x06 (0000ms, 0700ms total)
T12B4 000:711 JLINK_GetNumBPUnits(Type = 0xF0)  returns 0x2000 (0000ms, 0700ms total)
T12B4 000:711 JLINK_GetNumWPUnits()  returns 0x04 (0000ms, 0700ms total)
T12B4 000:711 JLINK_GetSpeed()  returns 0xFA0 (0000ms, 0700ms total)
T12B4 000:711 JLINK_ReadMemU32(0xE000E004, 0x0001 Items, ...) -- CPU_ReadMem(4 bytes @ 0xE000E004) -- Data:  01 00 00 00  returns 0x01 (0000ms, 0700ms total)
T12B4 000:711 JLINK_ReadMemU32(0xE000E004, 0x0001 Items, ...) -- CPU_ReadMem(4 bytes @ 0xE000E004) -- Data:  01 00 00 00  returns 0x01 (0001ms, 0700ms total)
T12B4 000:712 JLINK_WriteMem(0xE0001000, 0x001C Bytes, ...) -- Data:  01 00 00 00 00 00 00 00 00 00 00 00 00 00 00 00 ... -- CPU_WriteMem(28 bytes @ 0xE0001000)  returns 0x1C (0001ms, 0701ms total)
T12B4 000:713 JLINK_ReadMem (0xE0001000, 0x001C Bytes, ...) -- CPU_ReadMem(28 bytes @ 0xE0001000) -- Data:  01 00 00 40 00 00 00 00 00 00 00 00 00 00 00 00 ...  returns 0x00 (0002ms, 0702ms total)
T12B4 000:715 JLINK_ReadReg(R15)  returns 0x08000650 (0000ms, 0704ms total)
T12B4 000:715 JLINK_ReadReg(XPSR)  returns 0x01000000 (0000ms, 0704ms total)
T12B4 000:792 JLINK_SetResetType(JLINKARM_RESET_TYPE_NORMAL)  returns JLINKARM_RESET_TYPE_NORMAL (0000ms, 0704ms total)
T12B4 000:792 JLINK_Reset() >0x108 TIF>Found SWD-DP with ID 0x2BA01477 >0x33 TIF> >0x33 TIF> >0x35 TIF> >0x33 TIF> >0x35 TIF> >0x33 TIF> >0x33 TIF> >0x35 TIF> >0x33 TIF> >0x33 TIF> >0x35 TIF> >0x33 TIF> >0x33 TIF> >0x35 TIF> >0x33 TIF> >0x33 TIF> >0x35 TIF> >0x35 TIF> >0x35 TIF> >0x33 TIF> >0x33 TIF> >0x35 TIF> >0x33 TIF> >0x33 TIF> >0x33 TIF>TPIU fitted.ETM fitted. >0x35 TIF> >0x33 TIF> >0x33 TIF> >0x35 TIF> >0x33 TIF> >0x33 TIF>  FPUnit: 6 code (BP) slots and 2 literal slots >0x35 TIF> >0x33 TIF>
 >0x33 TIF> >0x35 TIF> >0x33 TIF> >0x33 TIF> >0x35 TIF> >0x33 TIF> >0x33 TIF>Found Cortex-M3 r2p0, Little endian. (0099ms, 0704ms total)
T12B4 000:891 JLINK_ReadReg(R15)  returns 0x08000650 (0000ms, 0803ms total)
T12B4 000:891 JLINK_ReadReg(XPSR)  returns 0x01000000 (0000ms, 0803ms total)
T12B4 000:892 JLINK_ReadMem (0x08000650, 0x003C Bytes, ...) -- CPU_ReadMem(60 bytes @ 0x08000650) -- Data:  06 48 80 47 06 48 00 47 FE E7 FE E7 FE E7 FE E7 ...  returns 0x00 (0002ms, 0803ms total)
T12B4 001:033 JLINK_ReadMem (0x40020400, 0x0024 Bytes, ...) -- CPU_ReadMem(36 bytes @ 0x40020400) -- Data:  80 02 00 00 80 02 00 00 80 02 00 00 80 02 00 00 ...  returns 0x00 (0004ms, 0805ms total)
T12B4 001:038 JLINK_ReadMem (0x40020424, 0x0004 Bytes, ...) -- CPU_ReadMem(4 bytes @ 0x40020424) -- Data:  80 02 00 00  returns 0x00 (0000ms, 0809ms total)
T12B4 001:038 JLINK_ReadMem (0x40020400, 0x0004 Bytes, ...) -- CPU_ReadMem(4 bytes @ 0x40020400) -- Data:  80 02 00 00  returns 0x00 (0001ms, 0809ms total)
T12B4 001:039 JLINK_ReadMem (0x40020400, 0x0004 Bytes, ...) -- CPU_ReadMem(4 bytes @ 0x40020400) -- Data:  80 02 00 00  returns 0x00 (0001ms, 0810ms total)
T12B4 001:040 JLINK_ReadMem (0x40020400, 0x0004 Bytes, ...) -- CPU_ReadMem(4 bytes @ 0x40020400) -- Data:  80 02 00 00  returns 0x00 (0001ms, 0811ms total)
T12B4 001:042 JLINK_ReadMem (0x40020400, 0x0004 Bytes, ...) -- CPU_ReadMem(4 bytes @ 0x40020400) -- Data:  80 02 00 00  returns 0x00 (0000ms, 0812ms total)
T12B4 001:043 JLINK_ReadMem (0x40020400, 0x0004 Bytes, ...) -- CPU_ReadMem(4 bytes @ 0x40020400) -- Data:  80 02 00 00  returns 0x00 (0001ms, 0812ms total)
T12B4 001:044 JLINK_ReadMem (0x40020400, 0x0004 Bytes, ...) -- CPU_ReadMem(4 bytes @ 0x40020400) -- Data:  80 02 00 00  returns 0x00 (0000ms, 0813ms total)
T12B4 001:044 JLINK_ReadMem (0x40020400, 0x0004 Bytes, ...) -- CPU_ReadMem(4 bytes @ 0x40020400) -- Data:  80 02 00 00  returns 0x00 (0001ms, 0813ms total)
T12B4 001:045 JLINK_ReadMem (0x40020400, 0x0004 Bytes, ...) -- CPU_ReadMem(4 bytes @ 0x40020400) -- Data:  80 02 00 00  returns 0x00 (0001ms, 0814ms total)
T12B4 001:046 JLINK_ReadMem (0x40020400, 0x0004 Bytes, ...) -- CPU_ReadMem(4 bytes @ 0x40020400) -- Data:  80 02 00 00  returns 0x00 (0001ms, 0815ms total)
T12B4 001:047 JLINK_ReadMem (0x40020400, 0x0004 Bytes, ...) -- CPU_ReadMem(4 bytes @ 0x40020400) -- Data:  80 02 00 00  returns 0x00 (0001ms, 0816ms total)
T12B4 001:048 JLINK_ReadMem (0x40020400, 0x0004 Bytes, ...) -- CPU_ReadMem(4 bytes @ 0x40020400) -- Data:  80 02 00 00  returns 0x00 (0001ms, 0817ms total)
T12B4 001:049 JLINK_ReadMem (0x40020400, 0x0004 Bytes, ...) -- CPU_ReadMem(4 bytes @ 0x40020400) -- Data:  80 02 00 00  returns 0x00 (0001ms, 0818ms total)
T12B4 001:050 JLINK_ReadMem (0x40020400, 0x0004 Bytes, ...) -- CPU_ReadMem(4 bytes @ 0x40020400) -- Data:  80 02 00 00  returns 0x00 (0001ms, 0819ms total)
T12B4 001:051 JLINK_ReadMem (0x40020400, 0x0004 Bytes, ...) -- CPU_ReadMem(4 bytes @ 0x40020400) -- Data:  80 02 00 00  returns 0x00 (0001ms, 0820ms total)
T12B4 001:052 JLINK_ReadMem (0x40020400, 0x0004 Bytes, ...) -- CPU_ReadMem(4 bytes @ 0x40020400) -- Data:  80 02 00 00  returns 0x00 (0001ms, 0821ms total)
T12B4 001:053 JLINK_ReadMem (0x40020400, 0x0004 Bytes, ...) -- CPU_ReadMem(4 bytes @ 0x40020400) -- Data:  80 02 00 00  returns 0x00 (0001ms, 0822ms total)
T12B4 001:054 JLINK_ReadMem (0x40020400, 0x0004 Bytes, ...) -- CPU_ReadMem(4 bytes @ 0x40020400) -- Data:  80 02 00 00  returns 0x00 (0001ms, 0823ms total)
T12B4 001:055 JLINK_ReadMem (0x40020404, 0x0004 Bytes, ...) -- CPU_ReadMem(4 bytes @ 0x40020404) -- Data:  80 02 00 00  returns 0x00 (0001ms, 0824ms total)
T12B4 001:056 JLINK_ReadMem (0x40020404, 0x0004 Bytes, ...) -- CPU_ReadMem(4 bytes @ 0x40020404) -- Data:  80 02 00 00  returns 0x00 (0001ms, 0825ms total)
T12B4 001:057 JLINK_ReadMem (0x40020404, 0x0004 Bytes, ...) -- CPU_ReadMem(4 bytes @ 0x40020404) -- Data:  80 02 00 00  returns 0x00 (0001ms, 0826ms total)
T12B4 001:058 JLINK_ReadMem (0x40020404, 0x0004 Bytes, ...) -- CPU_ReadMem(4 bytes @ 0x40020404) -- Data:  80 02 00 00  returns 0x00 (0001ms, 0827ms total)
T12B4 001:059 JLINK_ReadMem (0x40020404, 0x0004 Bytes, ...) -- CPU_ReadMem(4 bytes @ 0x40020404) -- Data:  80 02 00 00  returns 0x00 (0001ms, 0828ms total)
T12B4 001:060 JLINK_ReadMem (0x40020404, 0x0004 Bytes, ...) -- CPU_ReadMem(4 bytes @ 0x40020404) -- Data:  80 02 00 00  returns 0x00 (0001ms, 0829ms total)
T12B4 001:061 JLINK_ReadMem (0x40020404, 0x0004 Bytes, ...) -- CPU_ReadMem(4 bytes @ 0x40020404) -- Data:  80 02 00 00  returns 0x00 (0001ms, 0830ms total)
T12B4 001:062 JLINK_ReadMem (0x40020404, 0x0004 Bytes, ...) -- CPU_ReadMem(4 bytes @ 0x40020404) -- Data:  80 02 00 00  returns 0x00 (0001ms, 0831ms total)
T12B4 001:063 JLINK_ReadMem (0x40020404, 0x0004 Bytes, ...) -- CPU_ReadMem(4 bytes @ 0x40020404) -- Data:  80 02 00 00  returns 0x00 (0001ms, 0832ms total)
T12B4 001:064 JLINK_ReadMem (0x40020404, 0x0004 Bytes, ...) -- CPU_ReadMem(4 bytes @ 0x40020404) -- Data:  80 02 00 00  returns 0x00 (0001ms, 0833ms total)
T12B4 001:065 JLINK_ReadMem (0x40020404, 0x0004 Bytes, ...) -- CPU_ReadMem(4 bytes @ 0x40020404) -- Data:  80 02 00 00  returns 0x00 (0001ms, 0834ms total)
T12B4 001:066 JLINK_ReadMem (0x40020404, 0x0004 Bytes, ...) -- CPU_ReadMem(4 bytes @ 0x40020404) -- Data:  80 02 00 00  returns 0x00 (0001ms, 0835ms total)
T12B4 001:067 JLINK_ReadMem (0x40020404, 0x0004 Bytes, ...) -- CPU_ReadMem(4 bytes @ 0x40020404) -- Data:  80 02 00 00  returns 0x00 (0001ms, 0836ms total)
T12B4 001:068 JLINK_ReadMem (0x40020404, 0x0004 Bytes, ...) -- CPU_ReadMem(4 bytes @ 0x40020404) -- Data:  80 02 00 00  returns 0x00 (0001ms, 0837ms total)
T12B4 001:069 JLINK_ReadMem (0x40020404, 0x0004 Bytes, ...) -- CPU_ReadMem(4 bytes @ 0x40020404) -- Data:  80 02 00 00  returns 0x00 (0001ms, 0838ms total)
T12B4 001:070 JLINK_ReadMem (0x40020404, 0x0004 Bytes, ...) -- CPU_ReadMem(4 bytes @ 0x40020404) -- Data:  80 02 00 00  returns 0x00 (0001ms, 0839ms total)
T12B4 001:071 JLINK_ReadMem (0x40020404, 0x0004 Bytes, ...) -- CPU_ReadMem(4 bytes @ 0x40020404) -- Data:  80 02 00 00  returns 0x00 (0001ms, 0840ms total)
T12B4 001:072 JLINK_ReadMem (0x40020408, 0x0004 Bytes, ...) -- CPU_ReadMem(4 bytes @ 0x40020408) -- Data:  80 02 00 00  returns 0x00 (0001ms, 0841ms total)
T12B4 001:073 JLINK_ReadMem (0x40020408, 0x0004 Bytes, ...) -- CPU_ReadMem(4 bytes @ 0x40020408) -- Data:  80 02 00 00  returns 0x00 (0001ms, 0842ms total)
T12B4 001:074 JLINK_ReadMem (0x40020408, 0x0004 Bytes, ...) -- CPU_ReadMem(4 bytes @ 0x40020408) -- Data:  80 02 00 00  returns 0x00 (0001ms, 0843ms total)
T12B4 001:075 JLINK_ReadMem (0x40020408, 0x0004 Bytes, ...) -- CPU_ReadMem(4 bytes @ 0x40020408) -- Data:  80 02 00 00  returns 0x00 (0001ms, 0844ms total)
T12B4 001:076 JLINK_ReadMem (0x40020408, 0x0004 Bytes, ...) -- CPU_ReadMem(4 bytes @ 0x40020408) -- Data:  80 02 00 00  returns 0x00 (0001ms, 0845ms total)
T12B4 001:077 JLINK_ReadMem (0x40020408, 0x0004 Bytes, ...) -- CPU_ReadMem(4 bytes @ 0x40020408) -- Data:  80 02 00 00  returns 0x00 (0001ms, 0846ms total)
T12B4 001:078 JLINK_ReadMem (0x40020408, 0x0004 Bytes, ...) -- CPU_ReadMem(4 bytes @ 0x40020408) -- Data:  80 02 00 00  returns 0x00 (0001ms, 0847ms total)
T12B4 001:079 JLINK_ReadMem (0x40020408, 0x0004 Bytes, ...) -- CPU_ReadMem(4 bytes @ 0x40020408) -- Data:  80 02 00 00  returns 0x00 (0001ms, 0848ms total)
T12B4 001:080 JLINK_ReadMem (0x40020408, 0x0004 Bytes, ...) -- CPU_ReadMem(4 bytes @ 0x40020408) -- Data:  80 02 00 00  returns 0x00 (0003ms, 0849ms total)
T12B4 001:083 JLINK_ReadMem (0x40020408, 0x0004 Bytes, ...) -- CPU_ReadMem(4 bytes @ 0x40020408) -- Data:  80 02 00 00  returns 0x00 (0001ms, 0852ms total)
T12B4 001:085 JLINK_ReadMem (0x40020408, 0x0004 Bytes, ...) -- CPU_ReadMem(4 bytes @ 0x40020408) -- Data:  80 02 00 00  returns 0x00 (0001ms, 0853ms total)
T12B4 001:086 JLINK_ReadMem (0x40020408, 0x0004 Bytes, ...) -- CPU_ReadMem(4 bytes @ 0x40020408) -- Data:  80 02 00 00  returns 0x00 (0000ms, 0854ms total)
T12B4 001:086 JLINK_ReadMem (0x40020408, 0x0004 Bytes, ...) -- CPU_ReadMem(4 bytes @ 0x40020408) -- Data:  80 02 00 00  returns 0x00 (0001ms, 0854ms total)
T12B4 001:087 JLINK_ReadMem (0x40020408, 0x0004 Bytes, ...) -- CPU_ReadMem(4 bytes @ 0x40020408) -- Data:  80 02 00 00  returns 0x00 (0001ms, 0855ms total)
T12B4 001:088 JLINK_ReadMem (0x40020408, 0x0004 Bytes, ...) -- CPU_ReadMem(4 bytes @ 0x40020408) -- Data:  80 02 00 00  returns 0x00 (0001ms, 0856ms total)
T12B4 001:089 JLINK_ReadMem (0x40020408, 0x0004 Bytes, ...) -- CPU_ReadMem(4 bytes @ 0x40020408) -- Data:  80 02 00 00  returns 0x00 (0001ms, 0857ms total)
T12B4 001:090 JLINK_ReadMem (0x40020408, 0x0004 Bytes, ...) -- CPU_ReadMem(4 bytes @ 0x40020408) -- Data:  80 02 00 00  returns 0x00 (0001ms, 0858ms total)
T12B4 001:091 JLINK_ReadMem (0x4002040C, 0x0004 Bytes, ...) -- CPU_ReadMem(4 bytes @ 0x4002040C) -- Data:  80 02 00 00  returns 0x00 (0001ms, 0859ms total)
T12B4 001:092 JLINK_ReadMem (0x4002040C, 0x0004 Bytes, ...) -- CPU_ReadMem(4 bytes @ 0x4002040C) -- Data:  80 02 00 00  returns 0x00 (0001ms, 0860ms total)
T12B4 001:093 JLINK_ReadMem (0x4002040C, 0x0004 Bytes, ...) -- CPU_ReadMem(4 bytes @ 0x4002040C) -- Data:  80 02 00 00  returns 0x00 (0001ms, 0861ms total)
T12B4 001:094 JLINK_ReadMem (0x4002040C, 0x0004 Bytes, ...) -- CPU_ReadMem(4 bytes @ 0x4002040C) -- Data:  80 02 00 00  returns 0x00 (0001ms, 0862ms total)
T12B4 001:095 JLINK_ReadMem (0x4002040C, 0x0004 Bytes, ...) -- CPU_ReadMem(4 bytes @ 0x4002040C) -- Data:  80 02 00 00  returns 0x00 (0001ms, 0863ms total)
T12B4 001:096 JLINK_ReadMem (0x4002040C, 0x0004 Bytes, ...) -- CPU_ReadMem(4 bytes @ 0x4002040C) -- Data:  80 02 00 00  returns 0x00 (0001ms, 0864ms total)
T12B4 001:097 JLINK_ReadMem (0x4002040C, 0x0004 Bytes, ...) -- CPU_ReadMem(4 bytes @ 0x4002040C) -- Data:  80 02 00 00  returns 0x00 (0001ms, 0865ms total)
T12B4 001:098 JLINK_ReadMem (0x4002040C, 0x0004 Bytes, ...) -- CPU_ReadMem(4 bytes @ 0x4002040C) -- Data:  80 02 00 00  returns 0x00 (0001ms, 0866ms total)
T12B4 001:099 JLINK_ReadMem (0x4002040C, 0x0004 Bytes, ...) -- CPU_ReadMem(4 bytes @ 0x4002040C) -- Data:  80 02 00 00  returns 0x00 (0001ms, 0867ms total)
T12B4 001:100 JLINK_ReadMem (0x4002040C, 0x0004 Bytes, ...) -- CPU_ReadMem(4 bytes @ 0x4002040C) -- Data:  80 02 00 00  returns 0x00 (0001ms, 0868ms total)
T12B4 001:101 JLINK_ReadMem (0x4002040C, 0x0004 Bytes, ...) -- CPU_ReadMem(4 bytes @ 0x4002040C) -- Data:  80 02 00 00  returns 0x00 (0001ms, 0869ms total)
T12B4 001:102 JLINK_ReadMem (0x4002040C, 0x0004 Bytes, ...) -- CPU_ReadMem(4 bytes @ 0x4002040C) -- Data:  80 02 00 00  returns 0x00 (0001ms, 0870ms total)
T12B4 001:103 JLINK_ReadMem (0x4002040C, 0x0004 Bytes, ...) -- CPU_ReadMem(4 bytes @ 0x4002040C) -- Data:  80 02 00 00  returns 0x00 (0001ms, 0871ms total)
T12B4 001:104 JLINK_ReadMem (0x4002040C, 0x0004 Bytes, ...) -- CPU_ReadMem(4 bytes @ 0x4002040C) -- Data:  80 02 00 00  returns 0x00 (0001ms, 0872ms total)
T12B4 001:105 JLINK_ReadMem (0x4002040C, 0x0004 Bytes, ...) -- CPU_ReadMem(4 bytes @ 0x4002040C) -- Data:  80 02 00 00  returns 0x00 (0001ms, 0873ms total)
T12B4 001:106 JLINK_ReadMem (0x4002040C, 0x0004 Bytes, ...) -- CPU_ReadMem(4 bytes @ 0x4002040C) -- Data:  80 02 00 00  returns 0x00 (0001ms, 0874ms total)
T12B4 001:107 JLINK_ReadMem (0x4002040C, 0x0004 Bytes, ...) -- CPU_ReadMem(4 bytes @ 0x4002040C) -- Data:  80 02 00 00  returns 0x00 (0001ms, 0875ms total)
T12B4 001:108 JLINK_ReadMem (0x40020410, 0x0004 Bytes, ...) -- CPU_ReadMem(4 bytes @ 0x40020410) -- Data:  80 02 00 00  returns 0x00 (0001ms, 0876ms total)
T12B4 001:109 JLINK_ReadMem (0x40020410, 0x0004 Bytes, ...) -- CPU_ReadMem(4 bytes @ 0x40020410) -- Data:  80 02 00 00  returns 0x00 (0001ms, 0877ms total)
T12B4 001:110 JLINK_ReadMem (0x40020410, 0x0004 Bytes, ...) -- CPU_ReadMem(4 bytes @ 0x40020410) -- Data:  80 02 00 00  returns 0x00 (0001ms, 0878ms total)
T12B4 001:111 JLINK_ReadMem (0x40020410, 0x0004 Bytes, ...) -- CPU_ReadMem(4 bytes @ 0x40020410) -- Data:  80 02 00 00  returns 0x00 (0001ms, 0879ms total)
T12B4 001:112 JLINK_ReadMem (0x40020410, 0x0004 Bytes, ...) -- CPU_ReadMem(4 bytes @ 0x40020410) -- Data:  80 02 00 00  returns 0x00 (0001ms, 0880ms total)
T12B4 001:113 JLINK_ReadMem (0x40020410, 0x0004 Bytes, ...) -- CPU_ReadMem(4 bytes @ 0x40020410) -- Data:  80 02 00 00  returns 0x00 (0001ms, 0881ms total)
T12B4 001:114 JLINK_ReadMem (0x40020410, 0x0004 Bytes, ...) -- CPU_ReadMem(4 bytes @ 0x40020410) -- Data:  80 02 00 00  returns 0x00 (0001ms, 0882ms total)
T12B4 001:115 JLINK_ReadMem (0x40020410, 0x0004 Bytes, ...) -- CPU_ReadMem(4 bytes @ 0x40020410) -- Data:  80 02 00 00  returns 0x00 (0001ms, 0883ms total)
T12B4 001:116 JLINK_ReadMem (0x40020410, 0x0004 Bytes, ...) -- CPU_ReadMem(4 bytes @ 0x40020410) -- Data:  80 02 00 00  returns 0x00 (0001ms, 0884ms total)
T12B4 001:117 JLINK_ReadMem (0x40020410, 0x0004 Bytes, ...) -- CPU_ReadMem(4 bytes @ 0x40020410) -- Data:  80 02 00 00  returns 0x00 (0001ms, 0885ms total)
T12B4 001:118 JLINK_ReadMem (0x40020410, 0x0004 Bytes, ...) -- CPU_ReadMem(4 bytes @ 0x40020410) -- Data:  80 02 00 00  returns 0x00 (0001ms, 0886ms total)
T12B4 001:119 JLINK_ReadMem (0x40020410, 0x0004 Bytes, ...) -- CPU_ReadMem(4 bytes @ 0x40020410) -- Data:  80 02 00 00  returns 0x00 (0001ms, 0887ms total)
T12B4 001:120 JLINK_ReadMem (0x40020410, 0x0004 Bytes, ...) -- CPU_ReadMem(4 bytes @ 0x40020410) -- Data:  80 02 00 00  returns 0x00 (0001ms, 0888ms total)
T12B4 001:121 JLINK_ReadMem (0x40020410, 0x0004 Bytes, ...) -- CPU_ReadMem(4 bytes @ 0x40020410) -- Data:  80 02 00 00  returns 0x00 (0001ms, 0889ms total)
T12B4 001:122 JLINK_ReadMem (0x40020410, 0x0004 Bytes, ...) -- CPU_ReadMem(4 bytes @ 0x40020410) -- Data:  80 02 00 00  returns 0x00 (0001ms, 0890ms total)
T12B4 001:123 JLINK_ReadMem (0x40020410, 0x0004 Bytes, ...) -- CPU_ReadMem(4 bytes @ 0x40020410) -- Data:  80 02 00 00  returns 0x00 (0001ms, 0891ms total)
T12B4 001:124 JLINK_ReadMem (0x40020410, 0x0004 Bytes, ...) -- CPU_ReadMem(4 bytes @ 0x40020410) -- Data:  80 02 00 00  returns 0x00 (0001ms, 0892ms total)
T12B4 001:126 JLINK_ReadMem (0x40020414, 0x0004 Bytes, ...) -- CPU_ReadMem(4 bytes @ 0x40020414) -- Data:  80 02 00 00  returns 0x00 (0000ms, 0893ms total)
T12B4 001:127 JLINK_ReadMem (0x40020414, 0x0004 Bytes, ...) -- CPU_ReadMem(4 bytes @ 0x40020414) -- Data:  80 02 00 00  returns 0x00 (0000ms, 0894ms total)
T12B4 001:127 JLINK_ReadMem (0x40020414, 0x0004 Bytes, ...) -- CPU_ReadMem(4 bytes @ 0x40020414) -- Data:  80 02 00 00  returns 0x00 (0001ms, 0894ms total)
T12B4 001:128 JLINK_ReadMem (0x40020414, 0x0004 Bytes, ...) -- CPU_ReadMem(4 bytes @ 0x40020414) -- Data:  80 02 00 00  returns 0x00 (0001ms, 0895ms total)
T12B4 001:129 JLINK_ReadMem (0x40020414, 0x0004 Bytes, ...) -- CPU_ReadMem(4 bytes @ 0x40020414) -- Data:  80 02 00 00  returns 0x00 (0001ms, 0896ms total)
T12B4 001:130 JLINK_ReadMem (0x40020414, 0x0004 Bytes, ...) -- CPU_ReadMem(4 bytes @ 0x40020414) -- Data:  80 02 00 00  returns 0x00 (0001ms, 0897ms total)
T12B4 001:131 JLINK_ReadMem (0x40020414, 0x0004 Bytes, ...) -- CPU_ReadMem(4 bytes @ 0x40020414) -- Data:  80 02 00 00  returns 0x00 (0001ms, 0898ms total)
T12B4 001:132 JLINK_ReadMem (0x40020414, 0x0004 Bytes, ...) -- CPU_ReadMem(4 bytes @ 0x40020414) -- Data:  80 02 00 00  returns 0x00 (0001ms, 0899ms total)
T12B4 001:133 JLINK_ReadMem (0x40020414, 0x0004 Bytes, ...) -- CPU_ReadMem(4 bytes @ 0x40020414) -- Data:  80 02 00 00  returns 0x00 (0001ms, 0900ms total)
T12B4 001:134 JLINK_ReadMem (0x40020414, 0x0004 Bytes, ...) -- CPU_ReadMem(4 bytes @ 0x40020414) -- Data:  80 02 00 00  returns 0x00 (0001ms, 0901ms total)
T12B4 001:135 JLINK_ReadMem (0x40020414, 0x0004 Bytes, ...) -- CPU_ReadMem(4 bytes @ 0x40020414) -- Data:  80 02 00 00  returns 0x00 (0001ms, 0902ms total)
T12B4 001:136 JLINK_ReadMem (0x40020414, 0x0004 Bytes, ...) -- CPU_ReadMem(4 bytes @ 0x40020414) -- Data:  80 02 00 00  returns 0x00 (0001ms, 0903ms total)
T12B4 001:137 JLINK_ReadMem (0x40020414, 0x0004 Bytes, ...) -- CPU_ReadMem(4 bytes @ 0x40020414) -- Data:  80 02 00 00  returns 0x00 (0001ms, 0904ms total)
T12B4 001:138 JLINK_ReadMem (0x40020414, 0x0004 Bytes, ...) -- CPU_ReadMem(4 bytes @ 0x40020414) -- Data:  80 02 00 00  returns 0x00 (0001ms, 0905ms total)
T12B4 001:139 JLINK_ReadMem (0x40020414, 0x0004 Bytes, ...) -- CPU_ReadMem(4 bytes @ 0x40020414) -- Data:  80 02 00 00  returns 0x00 (0001ms, 0906ms total)
T12B4 001:140 JLINK_ReadMem (0x40020414, 0x0004 Bytes, ...) -- CPU_ReadMem(4 bytes @ 0x40020414) -- Data:  80 02 00 00  returns 0x00 (0001ms, 0907ms total)
T12B4 001:141 JLINK_ReadMem (0x40020414, 0x0004 Bytes, ...) -- CPU_ReadMem(4 bytes @ 0x40020414) -- Data:  80 02 00 00  returns 0x00 (0001ms, 0908ms total)
T12B4 001:142 JLINK_ReadMem (0x40020418, 0x0004 Bytes, ...) -- CPU_ReadMem(4 bytes @ 0x40020418) -- Data:  80 02 00 00  returns 0x00 (0001ms, 0909ms total)
T12B4 001:143 JLINK_ReadMem (0x40020418, 0x0004 Bytes, ...) -- CPU_ReadMem(4 bytes @ 0x40020418) -- Data:  80 02 00 00  returns 0x00 (0001ms, 0910ms total)
T12B4 001:144 JLINK_ReadMem (0x40020418, 0x0004 Bytes, ...) -- CPU_ReadMem(4 bytes @ 0x40020418) -- Data:  80 02 00 00  returns 0x00 (0001ms, 0911ms total)
T12B4 001:145 JLINK_ReadMem (0x40020418, 0x0004 Bytes, ...) -- CPU_ReadMem(4 bytes @ 0x40020418) -- Data:  80 02 00 00  returns 0x00 (0001ms, 0912ms total)
T12B4 001:146 JLINK_ReadMem (0x40020418, 0x0004 Bytes, ...) -- CPU_ReadMem(4 bytes @ 0x40020418) -- Data:  80 02 00 00  returns 0x00 (0001ms, 0913ms total)
T12B4 001:147 JLINK_ReadMem (0x40020418, 0x0004 Bytes, ...) -- CPU_ReadMem(4 bytes @ 0x40020418) -- Data:  80 02 00 00  returns 0x00 (0001ms, 0914ms total)
T12B4 001:148 JLINK_ReadMem (0x40020418, 0x0004 Bytes, ...) -- CPU_ReadMem(4 bytes @ 0x40020418) -- Data:  80 02 00 00  returns 0x00 (0001ms, 0915ms total)
T12B4 001:149 JLINK_ReadMem (0x40020418, 0x0004 Bytes, ...) -- CPU_ReadMem(4 bytes @ 0x40020418) -- Data:  80 02 00 00  returns 0x00 (0001ms, 0916ms total)
T12B4 001:150 JLINK_ReadMem (0x40020418, 0x0004 Bytes, ...) -- CPU_ReadMem(4 bytes @ 0x40020418) -- Data:  80 02 00 00  returns 0x00 (0001ms, 0917ms total)
T12B4 001:151 JLINK_ReadMem (0x40020418, 0x0004 Bytes, ...) -- CPU_ReadMem(4 bytes @ 0x40020418) -- Data:  80 02 00 00  returns 0x00 (0001ms, 0918ms total)
T12B4 001:152 JLINK_ReadMem (0x40020418, 0x0004 Bytes, ...) -- CPU_ReadMem(4 bytes @ 0x40020418) -- Data:  80 02 00 00  returns 0x00 (0001ms, 0919ms total)
T12B4 001:153 JLINK_ReadMem (0x40020418, 0x0004 Bytes, ...) -- CPU_ReadMem(4 bytes @ 0x40020418) -- Data:  80 02 00 00  returns 0x00 (0001ms, 0920ms total)
T12B4 001:154 JLINK_ReadMem (0x40020418, 0x0004 Bytes, ...) -- CPU_ReadMem(4 bytes @ 0x40020418) -- Data:  80 02 00 00  returns 0x00 (0001ms, 0921ms total)
T12B4 001:155 JLINK_ReadMem (0x40020418, 0x0004 Bytes, ...) -- CPU_ReadMem(4 bytes @ 0x40020418) -- Data:  80 02 00 00  returns 0x00 (0001ms, 0922ms total)
T12B4 001:156 JLINK_ReadMem (0x40020418, 0x0004 Bytes, ...) -- CPU_ReadMem(4 bytes @ 0x40020418) -- Data:  80 02 00 00  returns 0x00 (0001ms, 0923ms total)
T12B4 001:157 JLINK_ReadMem (0x40020418, 0x0004 Bytes, ...) -- CPU_ReadMem(4 bytes @ 0x40020418) -- Data:  80 02 00 00  returns 0x00 (0001ms, 0924ms total)
T12B4 001:158 JLINK_ReadMem (0x40020418, 0x0004 Bytes, ...) -- CPU_ReadMem(4 bytes @ 0x40020418) -- Data:  80 02 00 00  returns 0x00 (0001ms, 0925ms total)
T12B4 001:159 JLINK_ReadMem (0x40020418, 0x0004 Bytes, ...) -- CPU_ReadMem(4 bytes @ 0x40020418) -- Data:  80 02 00 00  returns 0x00 (0001ms, 0926ms total)
T12B4 001:160 JLINK_ReadMem (0x40020418, 0x0004 Bytes, ...) -- CPU_ReadMem(4 bytes @ 0x40020418) -- Data:  80 02 00 00  returns 0x00 (0001ms, 0927ms total)
T12B4 001:161 JLINK_ReadMem (0x40020418, 0x0004 Bytes, ...) -- CPU_ReadMem(4 bytes @ 0x40020418) -- Data:  80 02 00 00  returns 0x00 (0001ms, 0928ms total)
T12B4 001:162 JLINK_ReadMem (0x40020418, 0x0004 Bytes, ...) -- CPU_ReadMem(4 bytes @ 0x40020418) -- Data:  80 02 00 00  returns 0x00 (0001ms, 0929ms total)
T12B4 001:163 JLINK_ReadMem (0x40020418, 0x0004 Bytes, ...) -- CPU_ReadMem(4 bytes @ 0x40020418) -- Data:  80 02 00 00  returns 0x00 (0001ms, 0930ms total)
T12B4 001:164 JLINK_ReadMem (0x40020418, 0x0004 Bytes, ...) -- CPU_ReadMem(4 bytes @ 0x40020418) -- Data:  80 02 00 00  returns 0x00 (0001ms, 0931ms total)
T12B4 001:165 JLINK_ReadMem (0x40020418, 0x0004 Bytes, ...) -- CPU_ReadMem(4 bytes @ 0x40020418) -- Data:  80 02 00 00  returns 0x00 (0001ms, 0932ms total)
T12B4 001:166 JLINK_ReadMem (0x40020418, 0x0004 Bytes, ...) -- CPU_ReadMem(4 bytes @ 0x40020418) -- Data:  80 02 00 00  returns 0x00 (0001ms, 0933ms total)
T12B4 001:167 JLINK_ReadMem (0x40020418, 0x0004 Bytes, ...) -- CPU_ReadMem(4 bytes @ 0x40020418) -- Data:  80 02 00 00  returns 0x00 (0002ms, 0934ms total)
T12B4 001:169 JLINK_ReadMem (0x40020418, 0x0004 Bytes, ...) -- CPU_ReadMem(4 bytes @ 0x40020418) -- Data:  80 02 00 00  returns 0x00 (0000ms, 0936ms total)
T12B4 001:169 JLINK_ReadMem (0x40020418, 0x0004 Bytes, ...) -- CPU_ReadMem(4 bytes @ 0x40020418) -- Data:  80 02 00 00  returns 0x00 (0001ms, 0936ms total)
T12B4 001:170 JLINK_ReadMem (0x40020418, 0x0004 Bytes, ...) -- CPU_ReadMem(4 bytes @ 0x40020418) -- Data:  80 02 00 00  returns 0x00 (0001ms, 0937ms total)
T12B4 001:171 JLINK_ReadMem (0x40020418, 0x0004 Bytes, ...) -- CPU_ReadMem(4 bytes @ 0x40020418) -- Data:  80 02 00 00  returns 0x00 (0001ms, 0938ms total)
T12B4 001:172 JLINK_ReadMem (0x40020418, 0x0004 Bytes, ...) -- CPU_ReadMem(4 bytes @ 0x40020418) -- Data:  80 02 00 00  returns 0x00 (0001ms, 0939ms total)
T12B4 001:173 JLINK_ReadMem (0x40020418, 0x0004 Bytes, ...) -- CPU_ReadMem(4 bytes @ 0x40020418) -- Data:  80 02 00 00  returns 0x00 (0001ms, 0940ms total)
T12B4 001:174 JLINK_ReadMem (0x40020418, 0x0004 Bytes, ...) -- CPU_ReadMem(4 bytes @ 0x40020418) -- Data:  80 02 00 00  returns 0x00 (0001ms, 0941ms total)
T12B4 001:175 JLINK_ReadMem (0x4002041C, 0x0004 Bytes, ...) -- CPU_ReadMem(4 bytes @ 0x4002041C) -- Data:  80 02 00 00  returns 0x00 (0002ms, 0942ms total)
T12B4 001:177 JLINK_ReadMem (0x4002041C, 0x0004 Bytes, ...) -- CPU_ReadMem(4 bytes @ 0x4002041C) -- Data:  80 02 00 00  returns 0x00 (0001ms, 0944ms total)
T12B4 001:178 JLINK_ReadMem (0x4002041C, 0x0004 Bytes, ...) -- CPU_ReadMem(4 bytes @ 0x4002041C) -- Data:  80 02 00 00  returns 0x00 (0001ms, 0945ms total)
T12B4 001:179 JLINK_ReadMem (0x4002041C, 0x0004 Bytes, ...) -- CPU_ReadMem(4 bytes @ 0x4002041C) -- Data:  80 02 00 00  returns 0x00 (0001ms, 0946ms total)
T12B4 001:180 JLINK_ReadMem (0x4002041C, 0x0004 Bytes, ...) -- CPU_ReadMem(4 bytes @ 0x4002041C) -- Data:  80 02 00 00  returns 0x00 (0001ms, 0947ms total)
T12B4 001:181 JLINK_ReadMem (0x4002041C, 0x0004 Bytes, ...) -- CPU_ReadMem(4 bytes @ 0x4002041C) -- Data:  80 02 00 00  returns 0x00 (0001ms, 0948ms total)
T12B4 001:182 JLINK_ReadMem (0x4002041C, 0x0004 Bytes, ...) -- CPU_ReadMem(4 bytes @ 0x4002041C) -- Data:  80 02 00 00  returns 0x00 (0001ms, 0949ms total)
T12B4 001:183 JLINK_ReadMem (0x4002041C, 0x0004 Bytes, ...) -- CPU_ReadMem(4 bytes @ 0x4002041C) -- Data:  80 02 00 00  returns 0x00 (0001ms, 0950ms total)
T12B4 001:184 JLINK_ReadMem (0x4002041C, 0x0004 Bytes, ...) -- CPU_ReadMem(4 bytes @ 0x4002041C) -- Data:  80 02 00 00  returns 0x00 (0001ms, 0951ms total)
T12B4 001:185 JLINK_ReadMem (0x4002041C, 0x0004 Bytes, ...) -- CPU_ReadMem(4 bytes @ 0x4002041C) -- Data:  80 02 00 00  returns 0x00 (0001ms, 0952ms total)
T12B4 001:186 JLINK_ReadMem (0x4002041C, 0x0004 Bytes, ...) -- CPU_ReadMem(4 bytes @ 0x4002041C) -- Data:  80 02 00 00  returns 0x00 (0001ms, 0953ms total)
T12B4 001:187 JLINK_ReadMem (0x4002041C, 0x0004 Bytes, ...) -- CPU_ReadMem(4 bytes @ 0x4002041C) -- Data:  80 02 00 00  returns 0x00 (0001ms, 0954ms total)
T12B4 001:188 JLINK_ReadMem (0x4002041C, 0x0004 Bytes, ...) -- CPU_ReadMem(4 bytes @ 0x4002041C) -- Data:  80 02 00 00  returns 0x00 (0001ms, 0955ms total)
T12B4 001:189 JLINK_ReadMem (0x4002041C, 0x0004 Bytes, ...) -- CPU_ReadMem(4 bytes @ 0x4002041C) -- Data:  80 02 00 00  returns 0x00 (0001ms, 0956ms total)
T12B4 001:190 JLINK_ReadMem (0x4002041C, 0x0004 Bytes, ...) -- CPU_ReadMem(4 bytes @ 0x4002041C) -- Data:  80 02 00 00  returns 0x00 (0001ms, 0957ms total)
T12B4 001:191 JLINK_ReadMem (0x4002041C, 0x0004 Bytes, ...) -- CPU_ReadMem(4 bytes @ 0x4002041C) -- Data:  80 02 00 00  returns 0x00 (0001ms, 0958ms total)
T12B4 001:192 JLINK_ReadMem (0x4002041C, 0x0004 Bytes, ...) -- CPU_ReadMem(4 bytes @ 0x4002041C) -- Data:  80 02 00 00  returns 0x00 (0001ms, 0959ms total)
T12B4 001:193 JLINK_ReadMem (0x4002041C, 0x0004 Bytes, ...) -- CPU_ReadMem(4 bytes @ 0x4002041C) -- Data:  80 02 00 00  returns 0x00 (0001ms, 0960ms total)
T12B4 001:194 JLINK_ReadMem (0x40020420, 0x0004 Bytes, ...) -- CPU_ReadMem(4 bytes @ 0x40020420) -- Data:  80 02 00 00  returns 0x00 (0001ms, 0961ms total)
T12B4 001:195 JLINK_ReadMem (0x40020420, 0x0004 Bytes, ...) -- CPU_ReadMem(4 bytes @ 0x40020420) -- Data:  80 02 00 00  returns 0x00 (0003ms, 0962ms total)
T12B4 001:198 JLINK_ReadMem (0x40020420, 0x0004 Bytes, ...) -- CPU_ReadMem(4 bytes @ 0x40020420) -- Data:  80 02 00 00  returns 0x00 (0001ms, 0965ms total)
T12B4 001:199 JLINK_ReadMem (0x40020420, 0x0004 Bytes, ...) -- CPU_ReadMem(4 bytes @ 0x40020420) -- Data:  80 02 00 00  returns 0x00 (0001ms, 0966ms total)
T12B4 001:200 JLINK_ReadMem (0x40020420, 0x0004 Bytes, ...) -- CPU_ReadMem(4 bytes @ 0x40020420) -- Data:  80 02 00 00  returns 0x00 (0001ms, 0967ms total)
T12B4 001:201 JLINK_ReadMem (0x40020420, 0x0004 Bytes, ...) -- CPU_ReadMem(4 bytes @ 0x40020420) -- Data:  80 02 00 00  returns 0x00 (0001ms, 0968ms total)
T12B4 001:202 JLINK_ReadMem (0x40020420, 0x0004 Bytes, ...) -- CPU_ReadMem(4 bytes @ 0x40020420) -- Data:  80 02 00 00  returns 0x00 (0001ms, 0969ms total)
T12B4 001:203 JLINK_ReadMem (0x40020420, 0x0004 Bytes, ...) -- CPU_ReadMem(4 bytes @ 0x40020420) -- Data:  80 02 00 00  returns 0x00 (0001ms, 0970ms total)
T12B4 001:204 JLINK_ReadMem (0x40020420, 0x0004 Bytes, ...) -- CPU_ReadMem(4 bytes @ 0x40020420) -- Data:  80 02 00 00  returns 0x00 (0001ms, 0971ms total)
T12B4 001:205 JLINK_ReadMem (0x40020424, 0x0004 Bytes, ...) -- CPU_ReadMem(4 bytes @ 0x40020424) -- Data:  80 02 00 00  returns 0x00 (0001ms, 0972ms total)
T12B4 001:206 JLINK_ReadMem (0x40020424, 0x0004 Bytes, ...) -- CPU_ReadMem(4 bytes @ 0x40020424) -- Data:  80 02 00 00  returns 0x00 (0001ms, 0973ms total)
T12B4 001:207 JLINK_ReadMem (0x40020424, 0x0004 Bytes, ...) -- CPU_ReadMem(4 bytes @ 0x40020424) -- Data:  80 02 00 00  returns 0x00 (0003ms, 0974ms total)
T12B4 001:210 JLINK_ReadMem (0x40020424, 0x0004 Bytes, ...) -- CPU_ReadMem(4 bytes @ 0x40020424) -- Data:  80 02 00 00  returns 0x00 (0001ms, 0977ms total)
T12B4 001:211 JLINK_ReadMem (0x40020424, 0x0004 Bytes, ...) -- CPU_ReadMem(4 bytes @ 0x40020424) -- Data:  80 02 00 00  returns 0x00 (0000ms, 0978ms total)
T12B4 001:211 JLINK_ReadMem (0x40020424, 0x0004 Bytes, ...) -- CPU_ReadMem(4 bytes @ 0x40020424) -- Data:  80 02 00 00  returns 0x00 (0001ms, 0978ms total)
T12B4 001:212 JLINK_ReadMem (0x40020424, 0x0004 Bytes, ...) -- CPU_ReadMem(4 bytes @ 0x40020424) -- Data:  80 02 00 00  returns 0x00 (0001ms, 0979ms total)
T12B4 001:213 JLINK_ReadMem (0x40020424, 0x0004 Bytes, ...) -- CPU_ReadMem(4 bytes @ 0x40020424) -- Data:  80 02 00 00  returns 0x00 (0001ms, 0980ms total)
T12B4 001:214 JLINK_ReadMem (0x40020424, 0x0004 Bytes, ...) -- CPU_ReadMem(4 bytes @ 0x40020424) -- Data:  80 02 00 00  returns 0x00 (0001ms, 0981ms total)
T12B4 002:982 JLINK_ReadMem (0x08000B50, 0x003C Bytes, ...) -- CPU_ReadMem(60 bytes @ 0x08000B50) -- Data:  A7 EB 09 00 BD E8 F8 8F 38 B5 03 78 01 F8 01 3B ...  returns 0x00 (0004ms, 0982ms total)
T12B4 003:192 JLINK_ReadMem (0x40020400, 0x0024 Bytes, ...) -- CPU_ReadMem(36 bytes @ 0x40020400) -- Data:  80 02 00 00 80 02 00 00 80 02 00 00 80 02 00 00 ...  returns 0x00 (0002ms, 0986ms total)
T12B4 003:194 JLINK_ReadMem (0x40020424, 0x0004 Bytes, ...) -- CPU_ReadMem(4 bytes @ 0x40020424) -- Data:  80 02 00 00  returns 0x00 (0001ms, 0988ms total)
T1078 003:201 JLINK_SetBPEx(Addr = 0x0800052C, Type = 0xFFFFFFF2)  returns 0x00000001 (0000ms, 0989ms total)
T1078 003:201 JLINK_SetBPEx(Addr = 0x080005CA, Type = 0xFFFFFFF2)  returns 0x00000002 (0000ms, 0989ms total)
T1078 003:201 JLINK_SetBPEx(Addr = 0x0800054A, Type = 0xFFFFFFF2)  returns 0x00000003 (0000ms, 0989ms total)
T1078 003:201 JLINK_Go() -- CPU_WriteMem(4 bytes @ 0xE0002000) -- CPU_WriteMem(4 bytes @ 0xE0002008) -- CPU_WriteMem(4 bytes @ 0xE000200C) -- CPU_WriteMem(4 bytes @ 0xE0002010) -- CPU_WriteMem(4 bytes @ 0xE0002014) -- CPU_WriteMem(4 bytes @ 0xE0002018) -- CPU_WriteMem(4 bytes @ 0xE000201C) (0010ms, 0989ms total)
T1078 003:311 JLINK_IsHalted()  returns TRUE (0004ms, 0999ms total)
T1078 003:315 JLINK_Halt()  returns 0x00 (0000ms, 0999ms total)
T1078 003:315 JLINK_IsHalted()  returns TRUE (0000ms, 0999ms total)
T1078 003:315 JLINK_IsHalted()  returns TRUE (0000ms, 0999ms total)
T1078 003:315 JLINK_IsHalted()  returns TRUE (0000ms, 0999ms total)
T1078 003:315 JLINK_ReadReg(R15)  returns 0x0800052C (0000ms, 0999ms total)
T1078 003:315 JLINK_ReadReg(XPSR)  returns 0x61000000 (0000ms, 0999ms total)
T1078 003:315 JLINK_ClrBPEx(BPHandle = 0x00000001)  returns 0x00 (0000ms, 0999ms total)
T1078 003:315 JLINK_ClrBPEx(BPHandle = 0x00000002)  returns 0x00 (0000ms, 0999ms total)
T1078 003:315 JLINK_ClrBPEx(BPHandle = 0x00000003)  returns 0x00 (0000ms, 0999ms total)
T1078 003:315 JLINK_ReadMemU32(0xE000ED30, 0x0001 Items, ...) -- CPU_ReadMem(4 bytes @ 0xE000ED30) -- Data:  03 00 00 00  returns 0x01 (0002ms, 0999ms total)
T1078 003:317 JLINK_ReadMemU32(0xE0001028, 0x0001 Items, ...) -- CPU_ReadMem(4 bytes @ 0xE0001028) -- Data:  01 00 00 40  returns 0x01 (0001ms, 1001ms total)
T1078 003:318 JLINK_ReadMemU32(0xE0001038, 0x0001 Items, ...) -- CPU_ReadMem(4 bytes @ 0xE0001038) -- Data:  01 00 00 40  returns 0x01 (0001ms, 1002ms total)
T1078 003:319 JLINK_ReadMemU32(0xE0001048, 0x0001 Items, ...) -- CPU_ReadMem(4 bytes @ 0xE0001048) -- Data:  01 00 00 40  returns 0x01 (0001ms, 1003ms total)
T1078 003:320 JLINK_ReadMemU32(0xE0001058, 0x0001 Items, ...) -- CPU_ReadMem(4 bytes @ 0xE0001058) -- Data:  01 00 00 40  returns 0x01 (0001ms, 1004ms total)
T1078 003:321 JLINK_ReadReg(R0)  returns 0x0800052D (0000ms, 1005ms total)
T1078 003:321 JLINK_ReadReg(R1)  returns 0x20002560 (0000ms, 1005ms total)
T1078 003:321 JLINK_ReadReg(R2)  returns 0x00000000 (0000ms, 1005ms total)
T1078 003:321 JLINK_ReadReg(R3)  returns 0x08001AD1 (0000ms, 1005ms total)
T1078 003:321 JLINK_ReadReg(R4)  returns 0x08001C08 (0000ms, 1005ms total)
T1078 003:321 JLINK_ReadReg(R5)  returns 0x08001C08 (0000ms, 1005ms total)
T1078 003:321 JLINK_ReadReg(R6)  returns 0x00000000 (0000ms, 1005ms total)
T1078 003:321 JLINK_ReadReg(R7)  returns 0x00000000 (0000ms, 1005ms total)
T1078 003:321 JLINK_ReadReg(R8)  returns 0x00000000 (0002ms, 1005ms total)
T1078 003:323 JLINK_ReadReg(R9)  returns 0x00000000 (0000ms, 1007ms total)
T1078 003:323 JLINK_ReadReg(R10)  returns 0x00000000 (0000ms, 1007ms total)
T1078 003:324 JLINK_ReadReg(R11)  returns 0x00000000 (0000ms, 1007ms total)
T1078 003:324 JLINK_ReadReg(R12)  returns 0x00000000 (0000ms, 1007ms total)
T1078 003:324 JLINK_ReadReg(R13)  returns 0x20002560 (0000ms, 1007ms total)
T1078 003:324 JLINK_ReadReg(R14)  returns 0x08001AB9 (0000ms, 1007ms total)
T1078 003:324 JLINK_ReadReg(R15)  returns 0x0800052C (0000ms, 1007ms total)
T1078 003:324 JLINK_ReadReg(XPSR)  returns 0x61000000 (0000ms, 1007ms total)
T1078 003:324 JLINK_ReadReg(MSP)  returns 0x20002560 (0000ms, 1007ms total)
T1078 003:324 JLINK_ReadReg(PSP)  returns 0x00000000 (0000ms, 1007ms total)
T1078 003:324 JLINK_ReadReg(CFBP)  returns 0x00000000 (0000ms, 1007ms total)
T12B4 003:328 JLINK_ReadMem (0x40020400, 0x0024 Bytes, ...) -- CPU_ReadMem(36 bytes @ 0x40020400) -- Data:  80 02 00 00 80 02 00 00 80 02 00 00 80 02 00 00 ...  returns 0x00 (0001ms, 1007ms total)
T12B4 003:329 JLINK_ReadMem (0x40020424, 0x0004 Bytes, ...) -- CPU_ReadMem(4 bytes @ 0x40020424) -- Data:  80 02 00 00  returns 0x00 (0001ms, 1008ms total)
T12B4 003:333 JLINK_ReadMem (0x0800052C, 0x003C Bytes, ...) -- CPU_ReadMem(128 bytes @ 0x08000500) -- Updating DA cache (128 bytes @ 0x08000500) -- Read from DA cache (60 bytes @ 0x0800052C) -- Data:  01 F0 C4 F8 00 F0 42 FC 41 4C 02 26 04 F1 40 01 ...  returns 0x00 (0003ms, 1009ms total)
T1078 003:725 JLINK_SetBPEx(Addr = 0x080005CA, Type = 0xFFFFFFF2)  returns 0x00000004 (0000ms, 1012ms total)
T1078 003:725 JLINK_SetBPEx(Addr = 0x0800054A, Type = 0xFFFFFFF2)  returns 0x00000005 (0000ms, 1012ms total)
T1078 003:725 JLINK_Go() -- CPU_WriteMem(4 bytes @ 0xE000200C) -- CPU_WriteMem(4 bytes @ 0xE0002008) -- CPU_WriteMem(4 bytes @ 0xE0002010) -- CPU_WriteMem(4 bytes @ 0xE000200C) -- CPU_WriteMem(4 bytes @ 0xE0002008) -- CPU_WriteMem(4 bytes @ 0xE000200C) -- CPU_WriteMem(4 bytes @ 0xE0002010) -- CPU_WriteMem(4 bytes @ 0xE0002014) -- CPU_WriteMem(4 bytes @ 0xE0002018) -- CPU_WriteMem(4 bytes @ 0xE000201C) (0014ms, 1012ms total)
T1078 003:839 JLINK_IsHalted()  returns TRUE (0004ms, 1026ms total)
T1078 003:843 JLINK_Halt()  returns 0x00 (0000ms, 1026ms total)
T1078 003:843 JLINK_IsHalted()  returns TRUE (0000ms, 1026ms total)
T1078 003:843 JLINK_IsHalted()  returns TRUE (0000ms, 1026ms total)
T1078 003:843 JLINK_IsHalted()  returns TRUE (0000ms, 1026ms total)
T1078 003:843 JLINK_ReadReg(R15)  returns 0x0800054A (0000ms, 1026ms total)
T1078 003:843 JLINK_ReadReg(XPSR)  returns 0x01000000 (0000ms, 1026ms total)
T1078 003:843 JLINK_ClrBPEx(BPHandle = 0x00000004)  returns 0x00 (0000ms, 1026ms total)
T1078 003:843 JLINK_ClrBPEx(BPHandle = 0x00000005)  returns 0x00 (0000ms, 1026ms total)
T1078 003:843 JLINK_ReadMemU32(0xE000ED30, 0x0001 Items, ...) -- CPU_ReadMem(4 bytes @ 0xE000ED30) -- Data:  03 00 00 00  returns 0x01 (0001ms, 1026ms total)
T1078 003:844 JLINK_ReadMemU32(0xE0001028, 0x0001 Items, ...) -- CPU_ReadMem(4 bytes @ 0xE0001028) -- Data:  01 00 00 40  returns 0x01 (0001ms, 1027ms total)
T1078 003:845 JLINK_ReadMemU32(0xE0001038, 0x0001 Items, ...) -- CPU_ReadMem(4 bytes @ 0xE0001038) -- Data:  01 00 00 40  returns 0x01 (0001ms, 1028ms total)
T1078 003:846 JLINK_ReadMemU32(0xE0001048, 0x0001 Items, ...) -- CPU_ReadMem(4 bytes @ 0xE0001048) -- Data:  01 00 00 40  returns 0x01 (0001ms, 1029ms total)
T1078 003:847 JLINK_ReadMemU32(0xE0001058, 0x0001 Items, ...) -- CPU_ReadMem(4 bytes @ 0xE0001058) -- Data:  01 00 00 40  returns 0x01 (0001ms, 1030ms total)
T1078 003:848 JLINK_ReadReg(R0)  returns 0x00000001 (0000ms, 1031ms total)
T1078 003:848 JLINK_ReadReg(R1)  returns 0x200000DC (0000ms, 1031ms total)
T1078 003:848 JLINK_ReadReg(R2)  returns 0x00000080 (0000ms, 1031ms total)
T1078 003:848 JLINK_ReadReg(R3)  returns 0x40020404 (0000ms, 1031ms total)
T1078 003:848 JLINK_ReadReg(R4)  returns 0x2000009C (0000ms, 1031ms total)
T1078 003:848 JLINK_ReadReg(R5)  returns 0x08001C08 (0000ms, 1031ms total)
T1078 003:848 JLINK_ReadReg(R6)  returns 0x00000002 (0000ms, 1031ms total)
T1078 003:848 JLINK_ReadReg(R7)  returns 0x00000000 (0000ms, 1031ms total)
T1078 003:848 JLINK_ReadReg(R8)  returns 0x20000000 (0000ms, 1031ms total)
T1078 003:848 JLINK_ReadReg(R9)  returns 0x00000000 (0000ms, 1031ms total)
T1078 003:848 JLINK_ReadReg(R10)  returns 0x00000000 (0000ms, 1031ms total)
T1078 003:848 JLINK_ReadReg(R11)  returns 0x00000000 (0000ms, 1031ms total)
T1078 003:848 JLINK_ReadReg(R12)  returns 0x00008006 (0000ms, 1031ms total)
T1078 003:848 JLINK_ReadReg(R13)  returns 0x20002560 (0000ms, 1031ms total)
T1078 003:848 JLINK_ReadReg(R14)  returns 0x08000547 (0000ms, 1031ms total)
T1078 003:848 JLINK_ReadReg(R15)  returns 0x0800054A (0000ms, 1031ms total)
T1078 003:848 JLINK_ReadReg(XPSR)  returns 0x01000000 (0000ms, 1031ms total)
T1078 003:848 JLINK_ReadReg(MSP)  returns 0x20002560 (0000ms, 1031ms total)
T1078 003:848 JLINK_ReadReg(PSP)  returns 0x00000000 (0000ms, 1031ms total)
T1078 003:848 JLINK_ReadReg(CFBP)  returns 0x00000000 (0000ms, 1031ms total)
T12B4 003:849 JLINK_ReadMem (0x40020400, 0x0024 Bytes, ...) -- CPU_ReadMem(36 bytes @ 0x40020400) -- Data:  85 02 50 01 00 00 00 00 C0 00 00 00 00 01 00 00 ...  returns 0x00 (0002ms, 1031ms total)
T12B4 003:851 JLINK_ReadMem (0x40020424, 0x0004 Bytes, ...) -- CPU_ReadMem(4 bytes @ 0x40020424) -- Data:  00 00 00 00  returns 0x00 (0001ms, 1033ms total)
T12B4 003:852 JLINK_ReadMem (0x40020400, 0x0004 Bytes, ...) -- CPU_ReadMem(4 bytes @ 0x40020400) -- Data:  85 02 50 01  returns 0x00 (0001ms, 1034ms total)
T12B4 003:853 JLINK_ReadMem (0x40020400, 0x0004 Bytes, ...) -- CPU_ReadMem(4 bytes @ 0x40020400) -- Data:  85 02 50 01  returns 0x00 (0001ms, 1035ms total)
T12B4 003:854 JLINK_ReadMem (0x40020400, 0x0004 Bytes, ...) -- CPU_ReadMem(4 bytes @ 0x40020400) -- Data:  85 02 50 01  returns 0x00 (0001ms, 1036ms total)
T12B4 003:855 JLINK_ReadMem (0x40020400, 0x0004 Bytes, ...) -- CPU_ReadMem(4 bytes @ 0x40020400) -- Data:  85 02 50 01  returns 0x00 (0001ms, 1037ms total)
T12B4 003:856 JLINK_ReadMem (0x40020400, 0x0004 Bytes, ...) -- CPU_ReadMem(4 bytes @ 0x40020400) -- Data:  85 02 50 01  returns 0x00 (0001ms, 1038ms total)
T12B4 003:857 JLINK_ReadMem (0x40020400, 0x0004 Bytes, ...) -- CPU_ReadMem(4 bytes @ 0x40020400) -- Data:  85 02 50 01  returns 0x00 (0001ms, 1039ms total)
T12B4 003:858 JLINK_ReadMem (0x40020400, 0x0004 Bytes, ...) -- CPU_ReadMem(4 bytes @ 0x40020400) -- Data:  85 02 50 01  returns 0x00 (0001ms, 1040ms total)
T12B4 003:859 JLINK_ReadMem (0x40020400, 0x0004 Bytes, ...) -- CPU_ReadMem(4 bytes @ 0x40020400) -- Data:  85 02 50 01  returns 0x00 (0001ms, 1041ms total)
T12B4 003:860 JLINK_ReadMem (0x40020400, 0x0004 Bytes, ...) -- CPU_ReadMem(4 bytes @ 0x40020400) -- Data:  85 02 50 01  returns 0x00 (0001ms, 1042ms total)
T12B4 003:861 JLINK_ReadMem (0x40020400, 0x0004 Bytes, ...) -- CPU_ReadMem(4 bytes @ 0x40020400) -- Data:  85 02 50 01  returns 0x00 (0001ms, 1043ms total)
T12B4 003:862 JLINK_ReadMem (0x40020400, 0x0004 Bytes, ...) -- CPU_ReadMem(4 bytes @ 0x40020400) -- Data:  85 02 50 01  returns 0x00 (0001ms, 1044ms total)
T12B4 003:863 JLINK_ReadMem (0x40020400, 0x0004 Bytes, ...) -- CPU_ReadMem(4 bytes @ 0x40020400) -- Data:  85 02 50 01  returns 0x00 (0001ms, 1045ms total)
T12B4 003:864 JLINK_ReadMem (0x40020400, 0x0004 Bytes, ...) -- CPU_ReadMem(4 bytes @ 0x40020400) -- Data:  85 02 50 01  returns 0x00 (0002ms, 1046ms total)
T12B4 003:866 JLINK_ReadMem (0x40020400, 0x0004 Bytes, ...) -- CPU_ReadMem(4 bytes @ 0x40020400) -- Data:  85 02 50 01  returns 0x00 (0001ms, 1048ms total)
T12B4 003:867 JLINK_ReadMem (0x40020400, 0x0004 Bytes, ...) -- CPU_ReadMem(4 bytes @ 0x40020400) -- Data:  85 02 50 01  returns 0x00 (0001ms, 1049ms total)
T12B4 003:868 JLINK_ReadMem (0x40020400, 0x0004 Bytes, ...) -- CPU_ReadMem(4 bytes @ 0x40020400) -- Data:  85 02 50 01  returns 0x00 (0001ms, 1050ms total)
T12B4 003:869 JLINK_ReadMem (0x40020400, 0x0004 Bytes, ...) -- CPU_ReadMem(4 bytes @ 0x40020400) -- Data:  85 02 50 01  returns 0x00 (0001ms, 1051ms total)
T12B4 003:872 JLINK_ReadMem (0x40020404, 0x0004 Bytes, ...) -- CPU_ReadMem(4 bytes @ 0x40020404) -- Data:  00 00 00 00  returns 0x00 (0001ms, 1052ms total)
T12B4 003:873 JLINK_ReadMem (0x40020404, 0x0004 Bytes, ...) -- CPU_ReadMem(4 bytes @ 0x40020404) -- Data:  00 00 00 00  returns 0x00 (0001ms, 1053ms total)
T12B4 003:874 JLINK_ReadMem (0x40020404, 0x0004 Bytes, ...) -- CPU_ReadMem(4 bytes @ 0x40020404) -- Data:  00 00 00 00  returns 0x00 (0001ms, 1054ms total)
T12B4 003:875 JLINK_ReadMem (0x40020404, 0x0004 Bytes, ...) -- CPU_ReadMem(4 bytes @ 0x40020404) -- Data:  00 00 00 00  returns 0x00 (0001ms, 1055ms total)
T12B4 003:876 JLINK_ReadMem (0x40020404, 0x0004 Bytes, ...) -- CPU_ReadMem(4 bytes @ 0x40020404) -- Data:  00 00 00 00  returns 0x00 (0001ms, 1056ms total)
T12B4 003:877 JLINK_ReadMem (0x40020404, 0x0004 Bytes, ...) -- CPU_ReadMem(4 bytes @ 0x40020404) -- Data:  00 00 00 00  returns 0x00 (0000ms, 1057ms total)
T12B4 003:877 JLINK_ReadMem (0x40020404, 0x0004 Bytes, ...) -- CPU_ReadMem(4 bytes @ 0x40020404) -- Data:  00 00 00 00  returns 0x00 (0001ms, 1057ms total)
T12B4 003:878 JLINK_ReadMem (0x40020404, 0x0004 Bytes, ...) -- CPU_ReadMem(4 bytes @ 0x40020404) -- Data:  00 00 00 00  returns 0x00 (0001ms, 1058ms total)
T12B4 003:879 JLINK_ReadMem (0x40020404, 0x0004 Bytes, ...) -- CPU_ReadMem(4 bytes @ 0x40020404) -- Data:  00 00 00 00  returns 0x00 (0001ms, 1059ms total)
T12B4 003:881 JLINK_ReadMem (0x40020404, 0x0004 Bytes, ...) -- CPU_ReadMem(4 bytes @ 0x40020404) -- Data:  00 00 00 00  returns 0x00 (0000ms, 1060ms total)
T12B4 003:882 JLINK_ReadMem (0x40020404, 0x0004 Bytes, ...) -- CPU_ReadMem(4 bytes @ 0x40020404) -- Data:  00 00 00 00  returns 0x00 (0001ms, 1061ms total)
T12B4 003:883 JLINK_ReadMem (0x40020404, 0x0004 Bytes, ...) -- CPU_ReadMem(4 bytes @ 0x40020404) -- Data:  00 00 00 00  returns 0x00 (0001ms, 1062ms total)
T12B4 003:884 JLINK_ReadMem (0x40020404, 0x0004 Bytes, ...) -- CPU_ReadMem(4 bytes @ 0x40020404) -- Data:  00 00 00 00  returns 0x00 (0001ms, 1063ms total)
T12B4 003:885 JLINK_ReadMem (0x40020404, 0x0004 Bytes, ...) -- CPU_ReadMem(4 bytes @ 0x40020404) -- Data:  00 00 00 00  returns 0x00 (0001ms, 1064ms total)
T12B4 003:886 JLINK_ReadMem (0x40020404, 0x0004 Bytes, ...) -- CPU_ReadMem(4 bytes @ 0x40020404) -- Data:  00 00 00 00  returns 0x00 (0001ms, 1065ms total)
T12B4 003:887 JLINK_ReadMem (0x40020404, 0x0004 Bytes, ...) -- CPU_ReadMem(4 bytes @ 0x40020404) -- Data:  00 00 00 00  returns 0x00 (0001ms, 1066ms total)
T12B4 003:888 JLINK_ReadMem (0x40020404, 0x0004 Bytes, ...) -- CPU_ReadMem(4 bytes @ 0x40020404) -- Data:  00 00 00 00  returns 0x00 (0001ms, 1067ms total)
T12B4 003:891 JLINK_ReadMem (0x40020408, 0x0004 Bytes, ...) -- CPU_ReadMem(4 bytes @ 0x40020408) -- Data:  C0 00 00 00  returns 0x00 (0001ms, 1068ms total)
T12B4 003:892 JLINK_ReadMem (0x40020408, 0x0004 Bytes, ...) -- CPU_ReadMem(4 bytes @ 0x40020408) -- Data:  C0 00 00 00  returns 0x00 (0001ms, 1069ms total)
T12B4 003:893 JLINK_ReadMem (0x40020408, 0x0004 Bytes, ...) -- CPU_ReadMem(4 bytes @ 0x40020408) -- Data:  C0 00 00 00  returns 0x00 (0002ms, 1070ms total)
T12B4 003:895 JLINK_ReadMem (0x40020408, 0x0004 Bytes, ...) -- CPU_ReadMem(4 bytes @ 0x40020408) -- Data:  C0 00 00 00  returns 0x00 (0001ms, 1072ms total)
T12B4 003:896 JLINK_ReadMem (0x40020408, 0x0004 Bytes, ...) -- CPU_ReadMem(4 bytes @ 0x40020408) -- Data:  C0 00 00 00  returns 0x00 (0001ms, 1073ms total)
T12B4 003:897 JLINK_ReadMem (0x40020408, 0x0004 Bytes, ...) -- CPU_ReadMem(4 bytes @ 0x40020408) -- Data:  C0 00 00 00  returns 0x00 (0001ms, 1074ms total)
T12B4 003:898 JLINK_ReadMem (0x40020408, 0x0004 Bytes, ...) -- CPU_ReadMem(4 bytes @ 0x40020408) -- Data:  C0 00 00 00  returns 0x00 (0001ms, 1075ms total)
